
**** 05/29/23 23:24:40 ******* PSpice Lite (April 2011) ******* ID# 10813 ****

 ** Profile: "INVERTER-bjt_inverter_transient"  [ C:\Users\Public\Downloads\CAD\BJT-PSpiceFiles\INVERTER\bjt_inverter_transient.sim ]


 ****     CIRCUIT DESCRIPTION


******************************************************************************




** Creating circuit file "bjt_inverter_transient.cir" 
** WARNING: THIS AUTOMATICALLY GENERATED FILE MAY BE OVERWRITTEN BY SUBSEQUENT SIMULATIONS

*Libraries: 
* Profile Libraries :
* Local Libraries :
* From [PSPICE NETLIST] section of C:\Cadence\SPB_16.5\tools\PSpice\PSpice.ini file:
.lib "nomd.lib" 

*Analysis directives: 
.TRAN  0 8us 0 
.PROBE V(alias(*)) I(alias(*)) W(alias(*)) D(alias(*)) NOISE(alias(*)) 
.INC "..\INVERTER.net" 



**** INCLUDING INVERTER.net ****
* source BJT
V_V1         N00215 0 5Vdc
V_V2         N00208 0  
+PULSE 0 5V 100n 2n 2n 2u 4u
Q_Q1         N00200 N00204 0 Q2N2222
R_R1         N00208 N00204  10k TC=0,0 
R_R2         N00200 N00215  1k TC=0,0 

**** RESUMING bjt_inverter_transient.cir ****
.END

**** 05/29/23 23:24:40 ******* PSpice Lite (April 2011) ******* ID# 10813 ****

 ** Profile: "INVERTER-bjt_inverter_transient"  [ C:\Users\Public\Downloads\CAD\BJT-PSpiceFiles\INVERTER\bjt_inverter_transient.sim ]


 ****     BJT MODEL PARAMETERS


******************************************************************************




               Q2N2222         
               NPN             
       LEVEL    1            
          IS   14.340000E-15 
          BF  255.9          
          NF    1            
         VAF   74.03         
         IKF     .2847       
         ISE   14.340000E-15 
          NE    1.307        
          BR    6.092        
          NR    1            
         ISS    0            
          RB   10            
          RE    0            
          RC    1            
         CJE   22.010000E-12 
         VJE     .75         
         MJE     .377        
         CJC    7.306000E-12 
         VJC     .75         
         MJC     .3416       
        XCJC    1            
         CJS    0            
         VJS     .75         
          TF  411.100000E-12 
         XTF    3            
         VTF    1.7          
         ITF     .6          
          TR   46.910000E-09 
         XTB    1.5          
          KF    0            
          AF    1            
          CN    2.42         
           D     .87         


**** 05/29/23 23:24:40 ******* PSpice Lite (April 2011) ******* ID# 10813 ****

 ** Profile: "INVERTER-bjt_inverter_transient"  [ C:\Users\Public\Downloads\CAD\BJT-PSpiceFiles\INVERTER\bjt_inverter_transient.sim ]


 ****     INITIAL TRANSIENT SOLUTION       TEMPERATURE =   27.000 DEG C


******************************************************************************



 NODE   VOLTAGE     NODE   VOLTAGE     NODE   VOLTAGE     NODE   VOLTAGE


(N00200)    5.0000 (N00204) 8.231E-09 (N00208)    0.0000 (N00215)    5.0000 




    VOLTAGE SOURCE CURRENTS
    NAME         CURRENT

    V_V1        -6.175E-12
    V_V2         8.231E-13

    TOTAL POWER DISSIPATION   3.09E-11  WATTS



          JOB CONCLUDED

**** 05/29/23 23:24:40 ******* PSpice Lite (April 2011) ******* ID# 10813 ****

 ** Profile: "INVERTER-bjt_inverter_transient"  [ C:\Users\Public\Downloads\CAD\BJT-PSpiceFiles\INVERTER\bjt_inverter_transient.sim ]


 ****     JOB STATISTICS SUMMARY


******************************************************************************



  Total job time (using Solver 1)   =        0.00
